time	V(vout)	I(D1)
0.000000000000000e+000	9.126758e+000	-2.301354e-004
9.999999999996123e-006	9.126413e+000	-7.659146e-005
3.000000000000225e-005	9.125725e+000	1.810411e-007
1.185714285714322e-004	9.122677e+000	1.836926e-007
2.071428571428621e-004	9.119631e+000	1.862710e-007
2.957142857142921e-004	9.116586e+000	1.887763e-007
3.842857142857220e-004	9.113542e+000	1.912084e-007
4.728571428571520e-004	9.110499e+000	1.935673e-007
5.614285714285820e-004	9.107457e+000	1.958531e-007
6.500000000000117e-004	9.104416e+000	1.980657e-007
9.500000000000203e-004	9.094122e+000	2.049470e-007
1.250000000000029e-003	9.083840e+000	2.108668e-007
1.550000000000038e-003	9.073570e+000	2.157674e-007
1.850000000000046e-003	9.063313e+000	2.195851e-007
2.150000000000055e-003	9.053065e+000	2.222460e-007
2.450000000000063e-003	9.042830e+000	2.236614e-007
2.750000000000072e-003	9.032606e+000	2.237229e-007
2.850000000000075e-003	9.029202e+000	2.234706e-007
2.950000000000078e-003	9.025797e+000	2.281480e-007
3.050000000000080e-003	9.022394e+000	5.968261e-007
3.150000000000083e-003	9.018993e+000	1.888030e-005
3.250000000000086e-003	9.015594e+000	1.476580e-004
3.290586262939904e-003	9.014215e+000	4.054439e-004
3.316043186022771e-003	9.013352e+000	8.777902e-004
3.336433118777266e-003	9.012663e+000	1.703537e-003
3.355750642520652e-003	9.012013e+000	3.209199e-003
3.374613880760380e-003	9.011385e+000	5.927598e-003
3.394270078611109e-003	9.010741e+000	1.100607e-002
3.412976862909964e-003	9.010147e+000	1.953210e-002
3.431978628389301e-003	9.009578e+000	3.450810e-002
3.451137115618563e-003	9.009061e+000	6.013958e-002
3.470906028614815e-003	9.008631e+000	1.043484e-001
3.491647354594396e-003	9.008368e+000	1.804830e-001
3.514042692235986e-003	9.008443e+000	3.122452e-001
3.539464548141094e-003	9.009270e+000	5.436633e-001
3.571769495454569e-003	9.011957e+000	9.609500e-001
3.610933293497570e-003	9.018076e+000	1.580976e+000
3.649425955843999e-003	9.027542e+000	2.207328e+000
3.691058576238485e-003	9.041603e+000	2.782549e+000
3.739739717754820e-003	9.061865e+000	3.219759e+000
3.815046507324865e-003	9.096829e+000	3.477977e+000
3.895167072396066e-003	9.134405e+000	3.369295e+000
3.977185163847471e-003	9.169794e+000	2.984303e+000
4.063526892217534e-003	9.200882e+000	2.435956e+000
4.161487203426198e-003	9.227426e+000	1.768289e+000
4.261487203426201e-003	9.245207e+000	1.130579e+000
4.361487203426204e-003	9.254786e+000	6.047922e-001
4.443214760143768e-003	9.257596e+000	3.044740e-001
4.531155322733488e-003	9.257422e+000	1.056752e-001
4.565720684916216e-003	9.256761e+000	6.005901e-002
4.594645201483158e-003	9.255966e+000	3.825106e-002
4.622890989966835e-003	9.255110e+000	2.396794e-002
4.649456842800798e-003	9.254260e+000	1.496496e-002
4.674552148638822e-003	9.253430e+000	9.348383e-003
4.698653725897048e-003	9.252616e+000	5.839254e-003
4.724151138647187e-003	9.251744e+000	3.460874e-003
4.747711055277631e-003	9.250932e+000	2.087173e-003
4.773882030205845e-003	9.250025e+000	1.178227e-003
4.802386798535591e-003	9.249035e+000	6.213860e-004
4.837260818515224e-003	9.247821e+000	2.811509e-004
4.879618612258871e-003	9.246345e+000	1.059330e-004
4.936851038762513e-003	9.244349e+000	2.952789e-005
5.021083251142727e-003	9.241414e+000	4.330205e-006
5.121083251142730e-003	9.237930e+000	9.607334e-008
5.221083251142733e-003	9.234447e+000	-1.833382e-007
5.321083251142736e-003	9.230967e+000	-1.967919e-007
5.621083251142744e-003	9.220530e+000	-2.069457e-007
5.921083251142753e-003	9.210106e+000	-2.118957e-007
6.221083251142762e-003	9.199693e+000	-2.136137e-007
6.521083251142770e-003	9.189291e+000	-2.130132e-007
6.821083251142779e-003	9.178902e+000	-2.106028e-007
7.121083251142787e-003	9.168525e+000	-2.066906e-007
7.421083251142796e-003	9.158159e+000	-2.014795e-007
7.721083251142805e-003	9.147805e+000	-1.951125e-007
8.021083251142813e-003	9.137463e+000	-1.877006e-007
8.321083251142822e-003	9.127132e+000	-1.793323e-007
8.621083251142830e-003	9.116814e+000	-1.700855e-007
8.921083251142839e-003	9.106505e+000	-1.600283e-007
9.221083251142848e-003	9.096210e+000	-1.492278e-007
9.521083251142856e-003	9.085926e+000	-1.377450e-007
9.821083251142865e-003	9.075654e+000	-1.256424e-007
1.012108325114287e-002	9.065393e+000	-1.129797e-007
1.042108325114288e-002	9.055143e+000	-9.981795e-008
1.072108325114289e-002	9.044907e+000	-8.621691e-008
1.102108325114290e-002	9.034680e+000	-7.223866e-008
1.122108325114291e-002	9.027869e+000	-6.274036e-008
1.132108325114291e-002	9.024466e+000	-5.794413e-008
1.142108325114291e-002	9.021063e+000	-5.311972e-008
1.152108325114291e-002	9.017662e+000	-4.827062e-008
1.159086910231159e-002	9.015290e+000	-4.487340e-008
1.162617187616218e-002	9.014091e+000	-4.315163e-008
1.165006256968448e-002	9.013282e+000	-4.198597e-008
1.167049122491050e-002	9.012591e+000	-4.099065e-008
1.168986906368177e-002	9.011940e+000	-4.004943e-008
1.170876386037079e-002	9.011312e+000	-3.913761e-008
1.172837896600325e-002	9.010670e+000	-3.820243e-008
1.174709198381928e-002	9.010077e+000	-3.732944e-008
1.176609385473768e-002	9.009509e+000	-3.647562e-008
1.178527120917706e-002	9.008995e+000	-3.566892e-008
1.180507160477394e-002	9.008570e+000	-3.492975e-008
1.182586660448397e-002	9.008318e+000	-3.431041e-008
1.184835545983004e-002	9.008413e+000	-3.390195e-008
1.187396112600157e-002	9.009292e+000	-3.386808e-008
1.190675865919270e-002	9.012093e+000	-3.446577e-008
1.194503044829541e-002	9.018174e+000	-3.571801e-008
1.198360536983252e-002	9.027759e+000	-3.704331e-008
1.202514992949240e-002	9.041867e+000	-3.791753e-008
1.207427145401896e-002	9.062384e+000	-3.770344e-008
1.215051872636073e-002	9.097832e+000	-3.517681e-008
1.223061215966995e-002	9.135228e+000	-3.053293e-008
1.232183536104736e-002	9.174203e+000	-2.370109e-008
1.240396542855365e-002	9.203191e+000	-1.690166e-008
1.250396542855366e-002	9.229388e+000	-8.429424e-009
1.260396542855366e-002	9.246381e+000	-2.382876e-010
1.270396542855366e-002	9.255267e+000	7.338638e-009
1.278581721179438e-002	9.257689e+000	1.286210e-008
1.287297273869055e-002	9.257270e+000	1.811690e-008
1.290570469372815e-002	9.256595e+000	1.993862e-008
1.293368963628190e-002	9.255805e+000	2.141962e-008
1.296154412717465e-002	9.254950e+000	2.286101e-008
1.298778885969205e-002	9.254104e+000	2.419757e-008
1.301264780496753e-002	9.253277e+000	2.544937e-008
1.303660846465021e-002	9.252465e+000	2.664648e-008
1.306185804330093e-002	9.251600e+000	2.790086e-008
1.308536015631280e-002	9.250789e+000	2.906380e-008
1.310906602702067e-002	9.249967e+000	3.023370e-008
1.313315496350276e-002	9.249130e+000	3.142027e-008
1.316190629737538e-002	9.248130e+000	3.283378e-008
1.319540593961097e-002	9.246963e+000	3.447818e-008
1.323848222941894e-002	9.245461e+000	3.658950e-008
1.329614519966514e-002	9.243451e+000	3.941063e-008
1.338407769504020e-002	9.240387e+000	4.370047e-008
1.348407769504020e-002	9.236904e+000	4.856156e-008
1.358407769504021e-002	9.233421e+000	5.340144e-008
1.368407769504021e-002	9.229940e+000	5.821721e-008
1.398407769504022e-002	9.219505e+000	7.249673e-008
1.428407769504023e-002	9.209082e+000	8.647908e-008
1.458407769504024e-002	9.198669e+000	1.001038e-007
1.488407769504024e-002	9.188271e+000	1.133117e-007
1.518407769504025e-002	9.177882e+000	1.260446e-007
1.548407769504026e-002	9.167505e+000	1.382459e-007
1.578407769504027e-002	9.157141e+000	1.498606e-007
1.608407769504028e-002	9.146789e+000	1.608337e-007
1.638407769504029e-002	9.136447e+000	1.711126e-007
1.668407769504030e-002	9.126118e+000	1.806450e-007
1.698407769504030e-002	9.115800e+000	1.893789e-007
1.728407769504031e-002	9.105494e+000	1.972628e-007
1.758407769504032e-002	9.095200e+000	2.042457e-007
1.788407769504033e-002	9.084916e+000	2.102724e-007
1.818407769504034e-002	9.074645e+000	2.152869e-007
1.848407769504035e-002	9.064385e+000	2.192262e-007
1.878407769504036e-002	9.054137e+000	2.220172e-007
1.908407769504036e-002	9.043901e+000	2.235729e-007
1.938407769504037e-002	9.033676e+000	2.237880e-007
1.958407769504038e-002	9.026866e+000	2.243187e-007
1.968407769504038e-002	9.023462e+000	3.193891e-007
1.978407769504038e-002	9.020061e+000	5.665833e-006
1.988407769504039e-002	9.016662e+000	2.112130e-004
1.998407769504039e-002	9.013268e+000	1.255573e-003
2.001400965956118e-002	9.012259e+000	2.722168e-003
2.004156566070932e-002	9.011338e+000	6.129476e-003
2.006017247991994e-002	9.010729e+000	1.082935e-002
2.008090960077666e-002	9.010072e+000	2.042923e-002
2.009966708262301e-002	9.009511e+000	3.561013e-002
2.011910294029003e-002	9.008992e+000	6.251290e-002
2.013891565822581e-002	9.008571e+000	1.083364e-001
2.015975596258378e-002	9.008325e+000	1.874306e-001
2.018230822730778e-002	9.008432e+000	3.243517e-001
2.020802195815256e-002	9.009342e+000	5.651776e-001
2.024113065611742e-002	9.012218e+000	1.000644e+000
2.027900180817042e-002	9.018302e+000	1.604412e+000
2.031766776107997e-002	9.027978e+000	2.232774e+000
2.035918048056373e-002	9.042136e+000	2.800326e+000
2.040862279010658e-002	9.062843e+000	3.233375e+000
2.048568743285609e-002	9.098704e+000	3.480021e+000
2.056577644064635e-002	9.136062e+000	3.351490e+000
2.065694756357174e-002	9.174898e+000	2.905755e+000
2.073917330696164e-002	9.203779e+000	2.376931e+000
2.083917330696164e-002	9.229793e+000	1.694816e+000
2.093917330696164e-002	9.246614e+000	1.066584e+000
2.103917330696165e-002	9.255360e+000	5.578992e-001
2.112107831711287e-002	9.257705e+000	2.732653e-001
2.120809268712581e-002	9.257249e+000	9.100582e-002
2.123787131290181e-002	9.256630e+000	5.498818e-002
2.126687711216675e-002	9.255811e+000	3.498556e-002
2.129492435300123e-002	9.254950e+000	2.184247e-002
2.132114971998059e-002	9.254105e+000	1.364201e-002
2.134601810933862e-002	9.253277e+000	8.561891e-003
2.137280926385944e-002	9.252369e+000	5.055645e-003
2.139825807165777e-002	9.251496e+000	2.971599e-003
2.142418213407943e-002	9.250601e+000	1.711383e-003
2.145483236523935e-002	9.249537e+000	8.789086e-004
2.148980477447453e-002	9.248321e+000	4.015583e-004
2.153401820998176e-002	9.246780e+000	1.490513e-004
2.159193374669410e-002	9.244762e+000	4.143014e-005
2.167810631527256e-002	9.241759e+000	6.076195e-006
2.177810631527256e-002	9.238276e+000	2.015820e-007
2.187810631527257e-002	9.234792e+000	-1.791529e-007
2.197810631527257e-002	9.231310e+000	-1.962669e-007
2.227810631527258e-002	9.220874e+000	-2.067159e-007
2.257810631527259e-002	9.210449e+000	-2.117927e-007
2.287810631527260e-002	9.200035e+000	-2.135978e-007
2.317810631527260e-002	9.189634e+000	-2.130625e-007
2.347810631527261e-002	9.179245e+000	-2.107049e-007
2.377810631527262e-002	9.168867e+000	-2.068373e-007
2.407810631527263e-002	9.158501e+000	-2.016652e-007
2.437810631527264e-002	9.148146e+000	-1.953345e-007
2.467810631527265e-002	9.137804e+000	-1.879541e-007
2.497810631527266e-002	9.127472e+000	-1.796152e-007
2.527810631527264e-002	9.117153e+000	-1.703952e-007
2.557810631527260e-002	9.106846e+000	-1.603635e-007
2.587810631527257e-002	9.096549e+000	-1.495860e-007
2.617810631527254e-002	9.086265e+000	-1.381245e-007
2.647810631527250e-002	9.075993e+000	-1.260403e-007
2.677810631527247e-002	9.065731e+000	-1.133949e-007
2.707810631527244e-002	9.055481e+000	-1.002479e-007
2.737810631527241e-002	9.045243e+000	-8.666052e-008
2.767810631527237e-002	9.035017e+000	-7.269318e-008
2.787810631527235e-002	9.028206e+000	-6.320124e-008
2.797810631527234e-002	9.024802e+000	-5.840775e-008
2.807810631527233e-002	9.021400e+000	-5.358584e-008
2.817810631527232e-002	9.018000e+000	-4.873800e-008
2.827810631527231e-002	9.014602e+000	-4.387013e-008
2.831896849596649e-002	9.013216e+000	-4.187762e-008
2.835135916887047e-002	9.012124e+000	-4.030118e-008
2.837080043436213e-002	9.011474e+000	-3.936024e-008
2.838952818182736e-002	9.010858e+000	-3.846417e-008
2.840942870300051e-002	9.010221e+000	-3.752930e-008
2.842797157035160e-002	9.009657e+000	-3.668651e-008
2.844727177128298e-002	9.009122e+000	-3.585865e-008
2.846683571673364e-002	9.008672e+000	-3.510129e-008
2.848736092361762e-002	9.008366e+000	-3.444565e-008
2.850934189379384e-002	9.008351e+000	-3.397441e-008
2.853398424844142e-002	9.008969e+000	-3.382844e-008
2.856430854128839e-002	9.011332e+000	-3.427504e-008
2.861443540231287e-002	9.019085e+000	-3.583722e-008
2.865438134223883e-002	9.029066e+000	-3.715126e-008
2.869689913615556e-002	9.043847e+000	-3.796094e-008
2.874637806230992e-002	9.064830e+000	-3.759058e-008
2.882821257949905e-002	9.103067e+000	-3.461517e-008
2.890879734244400e-002	9.140424e+000	-2.974654e-008
2.900005744204132e-002	9.178664e+000	-2.276936e-008
2.908261661648406e-002	9.206895e+000	-1.588707e-008
2.918261661648405e-002	9.231915e+000	-7.425115e-009
2.928261661648404e-002	9.247819e+000	7.057679e-010
2.938261661648403e-002	9.255819e+000	8.181689e-009
2.946515868811409e-002	9.257760e+000	1.365658e-008
2.955165653469180e-002	9.257051e+000	1.879147e-008
2.957801089968010e-002	9.256461e+000	2.024138e-008
2.960853682866560e-002	9.255574e+000	2.184484e-008
2.963633935153226e-002	9.254706e+000	2.327628e-008
2.966449543446384e-002	9.253787e+000	2.470381e-008
2.969256986805327e-002	9.252845e+000	2.611183e-008
2.971987770266651e-002	9.251913e+000	2.747112e-008
2.975135746326288e-002	9.250829e+000	2.903002e-008
2.978601604349068e-002	9.249627e+000	3.073974e-008
2.982881910729987e-002	9.248137e+000	3.284540e-008
2.988277597079136e-002	9.246258e+000	3.549287e-008
2.995944130838002e-002	9.243587e+000	3.924495e-008
3.005944130838001e-002	9.240102e+000	4.412368e-008
3.015944130838000e-002	9.236618e+000	4.898334e-008
3.025944130837999e-002	9.233135e+000	5.382094e-008
3.045944130837996e-002	9.226175e+000	6.342157e-008
3.075944130837993e-002	9.215744e+000	7.760036e-008
3.105944130837990e-002	9.205325e+000	9.146015e-008
3.135944130837987e-002	9.194918e+000	1.049407e-007
3.165944130837983e-002	9.184522e+000	1.179828e-007
3.195944130837980e-002	9.174138e+000	1.305298e-007
3.225944130837977e-002	9.163766e+000	1.425246e-007
3.255944130837973e-002	9.153406e+000	1.539129e-007
3.285944130837970e-002	9.143057e+000	1.646411e-007
3.315944130837967e-002	9.132721e+000	1.746553e-007
3.345944130837963e-002	9.122395e+000	1.839044e-007
3.375944130837960e-002	9.112082e+000	1.923361e-007
3.405944130837957e-002	9.101779e+000	1.998997e-007
3.435944130837954e-002	9.091489e+000	2.065422e-007
3.465944130837950e-002	9.081210e+000	2.122092e-007
3.495944130837947e-002	9.070943e+000	2.168417e-007
3.525944130837944e-002	9.060688e+000	2.203735e-007
3.555944130837940e-002	9.050444e+000	2.227280e-007
3.585944130837937e-002	9.040212e+000	2.238114e-007
3.615944130837934e-002	9.029991e+000	2.235256e-007
3.625944130837933e-002	9.026587e+000	2.248535e-007
3.635944130837931e-002	9.023184e+000	3.619339e-007
3.645944130837930e-002	9.019782e+000	7.812596e-006
3.655944130837929e-002	9.016384e+000	2.849834e-004
3.665944130837928e-002	9.012993e+000	1.676280e-003
3.668924092375547e-002	9.011990e+000	3.611673e-003
3.671725125363248e-002	9.011060e+000	8.163821e-003
3.673576894623618e-002	9.010461e+000	1.426643e-002
3.675646387552053e-002	9.009819e+000	2.668061e-002
3.677534707505192e-002	9.009279e+000	4.631695e-002
3.679501120915321e-002	9.008797e+000	8.102792e-002
3.681524128018010e-002	9.008443e+000	1.402163e-001
3.683677082374046e-002	9.008331e+000	2.425018e-001
3.686055316521600e-002	9.008730e+000	4.205422e-001
3.688887194312437e-002	9.010406e+000	7.396142e-001
3.693003116847590e-002	9.015434e+000	1.349326e+000
3.696482513136318e-002	9.022679e+000	1.918381e+000
3.700911688400943e-002	9.036067e+000	2.589804e+000
3.705155950210354e-002	9.052479e+000	3.062675e+000
3.711361389790996e-002	9.080411e+000	3.411272e+000
3.719729243832085e-002	9.119934e+000	3.446481e+000
3.727809034700380e-002	9.156303e+000	3.158960e+000
3.736570786383642e-002	9.190492e+000	2.642706e+000
3.745540434199068e-002	9.217961e+000	2.036805e+000
3.755540434199067e-002	9.239281e+000	1.371671e+000
3.765540434199066e-002	9.251965e+000	7.928134e-001
3.774204250201149e-002	9.256819e+000	4.182849e-001
3.783409261654161e-002	9.257749e+000	1.605672e-001
3.788637329511796e-002	9.257035e+000	7.440583e-002
3.791878087327863e-002	9.256217e+000	4.446248e-002
3.794738454960042e-002	9.255375e+000	2.785529e-002
3.797448590393468e-002	9.254520e+000	1.739732e-002
3.800002505057651e-002	9.253683e+000	1.086441e-002
3.802439206950212e-002	9.252865e+000	6.801754e-003
3.805034538600785e-002	9.251980e+000	4.023754e-003
3.807403422014816e-002	9.251164e+000	2.438893e-003
3.810131879783330e-002	9.250219e+000	1.358039e-003
3.813107245817748e-002	9.249187e+000	7.017555e-004
3.816749168306827e-002	9.247919e+000	3.094242e-004
3.821197791991912e-002	9.246369e+000	1.124540e-004
3.827264198350508e-002	9.244255e+000	2.972194e-005
3.836347052740488e-002	9.241090e+000	3.785944e-006
3.846347052740487e-002	9.237605e+000	2.240199e-008
3.856347052740486e-002	9.234123e+000	-1.862861e-007
3.866347052740485e-002	9.230641e+000	-1.972521e-007
3.896347052740481e-002	9.220205e+000	-2.071567e-007
3.926347052740478e-002	9.209782e+000	-2.119889e-007
3.956347052740475e-002	9.199369e+000	-2.136267e-007
3.986347052740472e-002	9.188969e+000	-2.129652e-007
4.016347052740468e-002	9.178579e+000	-2.105057e-007
4.046347052740465e-002	9.168202e+000	-2.065517e-007
4.076347052740462e-002	9.157837e+000	-2.013037e-007
4.106347052740458e-002	9.147484e+000	-1.949040e-007
4.136347052740455e-002	9.137141e+000	-1.874616e-007
4.166347052740452e-002	9.126811e+000	-1.790659e-007
4.196347052740448e-002	9.116492e+000	-1.697936e-007
4.226347052740445e-002	9.106185e+000	-1.597132e-007
4.256347052740442e-002	9.095890e+000	-1.488909e-007
4.286347052740439e-002	9.085607e+000	-1.373887e-007
4.316347052740435e-002	9.075335e+000	-1.252681e-007
4.346347052740432e-002	9.065074e+000	-1.125893e-007
4.376347052740429e-002	9.054825e+000	-9.941346e-008
4.406347052740425e-002	9.044588e+000	-8.580037e-008
4.436347052740422e-002	9.034363e+000	-7.181166e-008
4.456347052740420e-002	9.027552e+000	-6.230744e-008
4.466347052740419e-002	9.024149e+000	-5.750849e-008
4.476347052740418e-002	9.020746e+000	-5.268134e-008
4.486347052740417e-002	9.017346e+000	-4.782896e-008
4.496347052740415e-002	9.013955e+000	-4.296055e-008
4.503300052863160e-002	9.011615e+000	-3.958057e-008
4.505795497329851e-002	9.010792e+000	-3.838267e-008
4.508041666050591e-002	9.010077e+000	-3.733134e-008
4.509950367778662e-002	9.009506e+000	-3.647301e-008
4.511935849586812e-002	9.008976e+000	-3.563966e-008
4.513916497651646e-002	9.008556e+000	-3.490406e-008
4.516008122599727e-002	9.008312e+000	-3.428868e-008
4.518266326637604e-002	9.008429e+000	-3.389162e-008
4.520844577301986e-002	9.009356e+000	-3.387859e-008
4.524174695583480e-002	9.012279e+000	-3.450975e-008
4.527938494226058e-002	9.018368e+000	-3.575358e-008
4.531811125229746e-002	9.028103e+000	-3.707922e-008
4.535961007588471e-002	9.042295e+000	-3.792890e-008
4.540925060386361e-002	9.063122e+000	-3.766979e-008
4.548686319172743e-002	9.099259e+000	-3.502991e-008
4.556695309113013e-002	9.136593e+000	-3.033126e-008
4.565809257289458e-002	9.175344e+000	-2.346669e-008
4.574038424585203e-002	9.204158e+000	-1.664083e-008
4.584038424585202e-002	9.230052e+000	-8.170446e-009
4.594038424585201e-002	9.246762e+000	5.684342e-012
4.604038424585200e-002	9.255419e+000	7.556948e-009
4.612232331933175e-002	9.257713e+000	1.306229e-008
4.620924966314233e-002	9.257230e+000	1.828632e-008
4.623811352564355e-002	9.256623e+000	1.988932e-008
4.627000076204343e-002	9.255717e+000	2.157401e-008
4.629816555768590e-002	9.254848e+000	2.302836e-008
4.633015973054011e-002	9.253807e+000	2.465234e-008
4.635902984550858e-002	9.252840e+000	2.610123e-008
4.638705462282217e-002	9.251884e+000	2.749654e-008
4.641951518238546e-002	9.250765e+000	2.910355e-008
4.645575395088744e-002	9.249508e+000	3.089078e-008
4.650084057434339e-002	9.247939e+000	3.310799e-008
4.655854486577588e-002	9.245929e+000	3.593887e-008
4.664222347645827e-002	9.243012e+000	4.003262e-008
4.674222347645826e-002	9.239529e+000	4.490857e-008
4.684222347645825e-002	9.236045e+000	4.976482e-008
4.694222347645824e-002	9.232563e+000	5.459856e-008
