time	V(vin)-V(vout)	V(vout)
0.000000000000000e+000	0.000000e+000	0.000000e+000
9.999999717180685e-010	6.610885e-007	3.108823e-006
1.586032542663258e-009	1.197193e-006	4.782009e-006
2.758097684553636e-009	2.827463e-006	7.570321e-006
5.102227968334392e-009	7.693439e-006	1.154151e-005
9.790488535895905e-009	2.069608e-005	1.621319e-005
1.429373955646042e-008	3.554417e-005	1.834196e-005
2.068187299403762e-008	5.858548e-005	1.938335e-005
2.772676952317547e-008	8.479909e-005	1.972837e-005
1.078833367491551e-007	3.868583e-004	1.985226e-005
3.366122695987388e-006	1.267007e-002	1.993853e-005
6.624362055225620e-006	2.495316e-002	2.009062e-005
9.882601414463853e-006	3.723612e-002	2.030852e-005
1.314084077370209e-005	4.951896e-002	2.059225e-005
1.639908013294032e-005	6.180167e-002	2.094179e-005
1.965731949217855e-005	7.408425e-002	2.135715e-005
2.291555885141678e-005	8.636671e-002	2.183834e-005
4.581267623084780e-005	1.725589e-001	1.422714e-004
9.160691098970985e-005	3.429449e-001	2.336329e-003
1.125257106681271e-004	4.150376e-001	9.047089e-003
1.292985181842447e-004	4.611311e-001	2.611980e-002
1.487864883419900e-004	4.969672e-001	6.365055e-002
1.748044869599521e-004	5.263254e-001	1.321951e-001
2.002714838347579e-004	5.441884e-001	2.101002e-001
2.353724532184859e-004	5.598765e-001	3.262928e-001
2.914648624815855e-004	5.762909e-001	5.202960e-001
5.559503873924982e-004	6.163728e-001	1.464200e+000
8.027726269595420e-004	6.380787e-001	2.342316e+000
1.052496615978150e-003	6.515820e-001	3.212940e+000
1.287401710014575e-003	6.667106e-001	3.998372e+000
1.673826917978113e-003	6.922321e-001	5.207437e+000
2.064969417196051e-003	7.308860e-001	6.291059e+000
2.695512634476307e-003	7.627473e-001	7.738301e+000
3.160715448331743e-003	7.308578e-001	8.558624e+000
3.497971079930390e-003	7.103910e-001	8.973536e+000
3.749842089719913e-003	7.090054e-001	9.167785e+000
4.054444157458115e-003	7.171345e-001	9.273917e+000
4.374934607008306e-003	7.255230e-001	9.243670e+000
4.755658805545968e-003	7.619276e-001	8.992564e+000
5.372699948244277e-003	8.647051e-001	8.119382e+000
6.354633824375586e-003	9.481616e-001	5.838552e+000
7.636326424492892e-003	6.779687e-001	1.919552e+000
8.019876680049018e-003	5.337754e-001	6.451800e-001
8.227660357238027e-003	3.410544e-001	5.721801e-002
8.275490168774366e-003	2.174954e-001	5.509301e-004
8.304752774831524e-003	1.077597e-001	-1.566685e-005
8.333570749864270e-003	-8.754047e-004	-1.963450e-005
8.389279551039264e-003	-2.108783e-001	-1.833680e-005
8.500697153389253e-003	-6.305121e-001	-1.613521e-005
8.710295530114412e-003	-1.416322e+000	-1.345973e-005
9.014208843414470e-003	-2.538735e+000	-1.107821e-005
9.460357119613020e-003	-4.122087e+000	-8.846373e-006
1.015877816804739e-002	-6.351291e+000	-6.393129e-006
1.112454253497698e-002	-8.685456e+000	-3.633652e-006
1.156228899026855e-002	-9.381635e+000	-2.464567e-006
1.188183927184649e-002	-9.729684e+000	-1.627383e-006
1.214235416392559e-002	-9.909242e+000	-9.561854e-007
1.241405545734186e-002	-9.994752e+000	-2.633987e-007
1.271804655847592e-002	-9.966234e+000	5.091060e-007
1.310489501356591e-002	-9.741115e+000	1.493537e-006
1.373167625887651e-002	-8.941217e+000	3.125879e-006
1.472805083186685e-002	-6.674967e+000	6.119336e-006
1.621907305473060e-002	-1.679425e+000	3.296757e-005
1.673334575072709e-002	3.197037e-002	2.193774e-001
1.699994037629391e-002	5.170923e-001	7.360170e-001
1.724611693924685e-002	6.185030e-001	1.548641e+000
1.746809281010036e-002	6.368525e-001	2.338697e+000
1.767541872979907e-002	6.472595e-001	3.064643e+000
1.786860348943868e-002	6.571486e-001	3.720575e+000
1.814939837532620e-002	6.797743e-001	4.623415e+000
1.858318172390783e-002	7.131419e-001	5.899548e+000
1.905179966011679e-002	7.751265e-001	7.053005e+000
1.982337556328018e-002	7.631502e-001	8.520730e+000
2.016167823414241e-002	7.105961e-001	8.970542e+000
2.041427748293907e-002	7.090359e-001	9.166434e+000
2.071839299134763e-002	7.172585e-001	9.273355e+000
2.104058954027262e-002	7.256832e-001	9.243808e+000
2.142067999686548e-002	7.616825e-001	8.994173e+000
2.203671256903049e-002	8.642502e-001	8.124227e+000
2.301714790506864e-002	9.778943e-001	5.820309e+000
2.448551930803215e-002	6.432316e-001	1.284177e+000
2.479851775845986e-002	3.903551e-001	3.684849e-001
2.500588765014794e-002	-6.962263e-002	4.742673e-002
2.517301858597341e-002	-6.517861e-001	-1.615144e-005
2.529294772792513e-002	-1.102129e+000	-1.428393e-005
2.540692596245771e-002	-1.528052e+000	-1.302833e-005
2.563488243152287e-002	-2.370653e+000	-1.133954e-005
2.609079536965319e-002	-3.997272e+000	-9.040763e-006
2.700262124591384e-002	-6.852665e+000	-5.853961e-006
2.768749401160033e-002	-8.485086e+000	-3.897601e-006
2.815502660095200e-002	-9.281519e+000	-2.650357e-006
2.849376916281348e-002	-9.679961e+000	-1.767407e-006
2.874667422377146e-002	-9.874913e+000	-1.116269e-006
2.905058565590533e-002	-9.990426e+000	-3.405965e-007
2.937349822871993e-002	-9.969616e+000	4.796382e-007
2.975332268541059e-002	-9.756429e+000	1.447177e-006
3.036893189476126e-002	-8.990319e+000	3.027699e-006
3.134873801652535e-002	-6.803027e+000	5.902626e-006
3.282029096814068e-002	-1.942904e+000	2.081630e-002
3.348248026989106e-002	1.176172e-001	4.443572e-001
3.383514712304586e-002	5.993794e-001	1.281150e+000
3.408584812037294e-002	6.348410e-001	2.164173e+000
3.434147526364038e-002	6.552517e-001	3.054515e+000
3.473601213732574e-002	7.139874e-001	4.330967e+000
3.552508588469645e-002	8.203478e-001	6.533750e+000
3.626564995249888e-002	8.131380e-001	8.123557e+000
3.684868243947184e-002	7.314825e-001	8.968577e+000
3.710108108104786e-002	7.099438e-001	9.177185e+000
3.741439123498182e-002	7.162952e-001	9.278498e+000
3.771817147109977e-002	7.239113e-001	9.242284e+000
3.810509814593813e-002	7.643309e-001	8.976609e+000
3.873200371776155e-002	8.691435e-001	8.071517e+000
3.972856224917898e-002	9.789748e-001	5.694550e+000
4.121979893746845e-002	2.586434e-001	1.418051e+000
4.183947748384550e-002	-9.213496e-001	2.703288e-001
4.246902833635309e-002	-2.978906e+000	-1.051895e-005
4.285293011508082e-002	-4.324514e+000	-8.532642e-006
4.321186022707303e-002	-5.501329e+000	-7.230240e-006
4.392972045105743e-002	-7.533559e+000	-5.061774e-006
4.452749148422250e-002	-8.812521e+000	-3.426274e-006
4.494565622319367e-002	-9.445262e+000	-2.323640e-006
4.525237308559615e-002	-9.761114e+000	-1.529971e-006
4.552194886168952e-002	-9.931177e+000	-8.379624e-007
4.578618537699391e-002	-9.998421e+000	-1.643116e-007
4.606580775183417e-002	-9.961621e+000	5.450411e-007
4.646168881956330e-002	-9.720740e+000	1.554826e-006
4.710281417543380e-002	-8.876487e+000	3.203222e-006
4.812035058004394e-002	-6.507805e+000	6.281843e-006
4.963579466676434e-002	-1.719569e+000	3.508569e-001
5.044828215433110e-002	1.692441e-001	1.512707e+000
5.123030201356796e-002	6.999247e-001	3.773690e+000
5.169600201565604e-002	6.992865e-001	5.267675e+000
5.206735580020602e-002	7.003002e-001	6.328048e+000
5.240394273764210e-002	7.015481e-001	7.170511e+000
5.270924919155989e-002	7.265954e-001	7.801610e+000
5.324881429357012e-002	7.654753e-001	8.641817e+000
5.372661448152279e-002	7.324657e-001	9.130242e+000
5.403012184877781e-002	7.186260e-001	9.268127e+000
5.436587760385564e-002	7.269306e-001	9.244882e+000
5.474092789997048e-002	7.597513e-001	9.006820e+000
5.534893496339916e-002	8.606253e-001	8.162446e+000
5.631742462290453e-002	9.776921e-001	5.911375e+000
5.777550797271975e-002	6.250155e-001	1.462471e+000
5.821749160807571e-002	1.617275e-001	2.748468e-001
5.847512207314203e-002	-5.357460e-001	1.469615e-003
5.863586285526129e-002	-1.138024e+000	-1.416835e-005
5.879059609336364e-002	-1.715302e+000	-1.263445e-005
5.910006256956835e-002	-2.850408e+000	-1.058074e-005
5.971899552197777e-002	-4.989453e+000	-7.926424e-006
6.095686142679661e-002	-8.355022e+000	-4.107826e-006
6.144314467376613e-002	-9.216729e+000	-2.781512e-006
6.179376723968758e-002	-9.647659e+000	-1.857638e-006
6.205489941075961e-002	-9.859546e+000	-1.180815e-006
6.235337598886996e-002	-9.984726e+000	-4.180687e-007
6.269545566488026e-002	-9.972866e+000	4.504320e-007
6.306815298011635e-002	-9.771493e+000	1.400323e-006
6.367241075727995e-002	-9.039032e+000	2.949560e-006
6.463530687163183e-002	-6.931178e+000	5.742686e-006
6.608668171827267e-002	-2.324038e+000	1.549270e-001
6.695115991513832e-002	3.738987e-002	1.033069e+000
6.756688858165687e-002	6.610129e-001	2.667971e+000
6.802959508717568e-002	6.868229e-001	4.228182e+000
6.845230385428325e-002	7.211337e-001	5.513537e+000
6.905584580644852e-002	7.979903e-001	7.039624e+000
6.979869431302262e-002	7.612791e-001	8.487622e+000
7.014346586753177e-002	7.115469e-001	8.952163e+000
7.040055380784123e-002	7.091846e-001	9.158014e+000
7.070168862035668e-002	7.180147e-001	9.269672e+000
7.103436948237663e-002	7.266521e-001	9.244642e+000
7.141056333066065e-002	7.601881e-001	9.003973e+000
7.202039195678524e-002	8.614492e-001	8.153822e+000
7.299159625323463e-002	9.779000e-001	5.890631e+000
7.445292330833891e-002	4.137802e-001	1.634060e+000
7.506714926914106e-002	-5.897893e-001	3.366696e-001
7.561162053895629e-002	-2.285367e+000	-1.175271e-005
7.596487544111144e-002	-3.557799e+000	-9.494061e-006
7.630378344146817e-002	-4.719611e+000	-8.097549e-006
7.698159944218161e-002	-6.794733e+000	-5.889793e-006
7.774429783100205e-002	-8.596454e+000	-3.742467e-006
7.819542418310532e-002	-9.337125e+000	-2.547645e-006
7.852364453865331e-002	-9.707612e+000	-1.688379e-006
7.877807743231105e-002	-9.892887e+000	-1.034042e-006
7.909384292870433e-002	-9.996232e+000	-2.302730e-007
7.938959368505151e-002	-9.964706e+000	5.228015e-007
7.977949803574343e-002	-9.734308e+000	1.511713e-006
8.041113505134141e-002	-8.919517e+000	3.139524e-006
8.141468744433640e-002	-6.618720e+000	6.136863e-006
8.291404981687418e-002	-2.042309e+000	4.682209e-001
8.391647034616613e-002	1.570022e-001	2.023708e+000
8.492529472775361e-002	7.653975e-001	4.882309e+000
8.550658566891431e-002	7.438512e-001	6.562808e+000
8.598969860209506e-002	7.282057e-001	7.694201e+000
8.635108427192842e-002	7.241697e-001	8.352391e+000
8.674116755685156e-002	7.170897e-001	8.876504e+000
8.701536992549350e-002	7.096672e-001	9.123898e+000
8.730543686759117e-002	7.206573e-001	9.252455e+000
8.767757490292596e-002	7.300291e-001	9.247572e+000
8.803906518712813e-002	7.546415e-001	9.039571e+000
8.862544325415370e-002	8.508186e-001	8.262527e+000
8.956155433910464e-002	9.741902e-001	6.154696e+000
9.098034987487029e-002	4.847946e-001	2.073787e+000
9.172099195166321e-002	-6.116364e-001	4.068492e-001
9.225999388745468e-002	-2.218174e+000	-1.194695e-005
9.266663681047856e-002	-3.681132e+000	-9.354765e-006
9.306160388904385e-002	-5.019726e+000	-7.779260e-006
9.385153804617442e-002	-7.336490e+000	-5.295700e-006
9.447486244984023e-002	-8.717016e+000	-3.566442e-006
9.490780103112387e-002	-9.397431e+000	-2.426190e-006
9.522421627698600e-002	-9.737501e+000	-1.600464e-006
9.548693823472215e-002	-9.914854e+000	-9.273227e-007
9.574989722997711e-002	-9.995053e+000	-2.581581e-007
9.605231303551527e-002	-9.965945e+000	5.134432e-007
9.643974581383860e-002	-9.739820e+000	1.494941e-006
9.706745576644155e-002	-8.937083e+000	3.112745e-006
9.806520426546921e-002	-6.664236e+000	5.953921e-006
9.955782735141976e-002	-2.290496e+000	6.312542e-001
1.007909707898514e-001	2.325218e-001	2.705374e+000
1.019042469430064e-001	8.269687e-001	5.750957e+000
1.025744102337954e-001	7.974205e-001	7.454431e+000
1.031925915703640e-001	7.643814e-001	8.568917e+000
1.036071297453121e-001	7.217684e-001	9.056576e+000
1.038865978250773e-001	7.075434e-001	9.236769e+000
1.041419243827333e-001	7.066641e-001	9.292901e+000
1.044074701927927e-001	7.199440e-001	9.238878e+000
1.048085637799437e-001	7.699146e-001	8.938717e+000
1.054579548498909e-001	8.791757e-001	7.959148e+000
1.064876276990417e-001	9.771900e-001	5.432919e+000
1.080168473139335e-001	-4.604900e-002	1.236344e+000
1.087522573412977e-001	-1.722741e+000	1.499922e-001
1.094700535087190e-001	-4.155364e+000	-9.037361e-006
1.104610039098404e-001	-7.188260e+000	-5.538084e-006
1.114035067844024e-001	-9.157727e+000	-2.909383e-006
1.117646364633303e-001	-9.618183e+000	-1.940788e-006
1.120329934240793e-001	-9.845418e+000	-1.237859e-006
1.123267868000930e-001	-9.978687e+000	-4.882322e-007
1.126855425345692e-001	-9.975547e+000	4.253854e-007
1.130520273053851e-001	-9.784234e+000	1.354628e-006
1.136463780630419e-001	-9.080575e+000	2.884420e-006
1.145944551020622e-001	-7.041364e+000	5.510016e-006
1.160278973023283e-001	-2.917931e+000	5.330336e-001
1.173950175838834e-001	6.610203e-002	2.645343e+000
1.187194517587997e-001	8.668842e-001	6.122283e+000
1.193871046948852e-001	8.065434e-001	7.743613e+000
1.200169588163343e-001	7.493219e-001	8.780806e+000
1.203392453312414e-001	7.114372e-001	9.115587e+000
1.206012445390582e-001	7.151051e-001	9.246642e+000
1.209539415067084e-001	7.232170e-001	9.266448e+000
1.212796957488409e-001	7.418270e-001	9.116925e+000
1.218088318079034e-001	8.248653e-001	8.506506e+000
1.226580330711162e-001	9.548726e-001	6.770966e+000
1.239662210043669e-001	7.168927e-001	3.082452e+000
1.249394544714057e-001	-3.955043e-001	6.237358e-001
1.255757237639535e-001	-2.153421e+000	-6.001023e-006
1.261722931323911e-001	-4.276967e+000	-8.681240e-006
1.267218803959365e-001	-6.044958e+000	-6.710422e-006
1.278210549230272e-001	-8.740670e+000	-3.564806e-006
1.282503667590543e-001	-9.409274e+000	-2.409082e-006
1.285644102803619e-001	-9.743356e+000	-1.589027e-006
1.288288046874371e-001	-9.918992e+000	-9.051994e-007
1.290851339482601e-001	-9.995276e+000	-2.502019e-007
1.293863543999483e-001	-9.965725e+000	5.113106e-007
1.297742305273858e-001	-9.738836e+000	1.503361e-006
1.304026450555164e-001	-8.933942e+000	3.114393e-006
1.314014355523737e-001	-6.656087e+000	5.965503e-006
1.328952713448078e-001	-2.299979e+000	6.560205e-001
1.341560008073773e-001	2.468958e-001	2.805008e+000
1.353216511431606e-001	8.470902e-001	5.966210e+000
1.360114728564137e-001	8.378825e-001	7.628493e+000
1.367810732868859e-001	7.497683e-001	8.885191e+000
1.370453495838929e-001	7.096024e-001	9.143868e+000
1.373417776848972e-001	7.191706e-001	9.263045e+000
1.376911327565444e-001	7.281303e-001	9.245921e+000
1.380611211169793e-001	7.578287e-001	9.019263e+000
1.386610603651536e-001	8.569727e-001	8.200276e+000
1.396175036428581e-001	9.765711e-001	6.002824e+000
1.410610982117278e-001	1.209764e-001	2.142184e+000
1.420992128277487e-001	-2.018202e+000	3.947587e-001
1.430574685848941e-001	-5.006236e+000	-8.233806e-006
1.439692416744687e-001	-7.630698e+000	-5.082568e-006
1.447617911721995e-001	-9.195107e+000	-2.833819e-006
1.451162966485304e-001	-9.636863e+000	-1.887347e-006
1.453801044090980e-001	-9.854382e+000	-1.201095e-006
1.456768367606373e-001	-9.982601e+000	-4.455603e-007
1.460251094237902e-001	-9.973876e+000	4.418299e-007
1.463955009504186e-001	-9.776265e+000	1.380036e-006
1.469960830497710e-001	-9.054551e+000	2.927304e-006
1.479534875665148e-001	-6.972241e+000	5.590507e-006
1.493982438981860e-001	-2.886186e+000	6.370276e-001
1.508651646799384e-001	1.647146e-001	3.039358e+000
1.522720207635954e-001	8.743253e-001	6.681426e+000
1.528668931858699e-001	7.924376e-001	8.030877e+000
1.534677844004417e-001	7.344055e-001	8.920509e+000
1.537270988233194e-001	7.093029e-001	9.153707e+000
1.540267669615986e-001	7.183809e-001	9.267715e+000
1.543646277931224e-001	7.271185e-001	9.245047e+000
1.547388950096373e-001	7.594528e-001	9.008761e+000
1.553456544813017e-001	8.600616e-001	8.168334e+000
1.563122837675010e-001	9.775376e-001	5.925565e+000
1.577681396159494e-001	1.849114e-001	1.929733e+000
1.586555638620558e-001	-1.578136e+000	3.663409e-001
1.595053384787741e-001	-4.275985e+000	-9.264339e-006
1.604001696920662e-001	-7.026949e+000	-5.810839e-006
1.612194419459719e-001	-8.857171e+000	-3.373419e-006
1.616305736827283e-001	-9.467637e+000	-2.287565e-006
1.619326392321766e-001	-9.772125e+000	-1.494623e-006
1.622055159723272e-001	-9.938438e+000	-7.948116e-007
1.624828741352499e-001	-9.999791e+000	-8.758300e-008
1.627436345586707e-001	-9.957850e+000	5.792174e-007
1.631464995250331e-001	-9.704461e+000	1.597133e-006
1.637986975155845e-001	-8.825225e+000	3.282450e-006
1.648324819294824e-001	-6.376719e+000	6.301839e-006
1.663663296095388e-001	-1.893707e+000	7.638810e-001
1.675799919872836e-001	3.781011e-001	2.997424e+000
1.687636240356259e-001	8.483520e-001	6.258940e+000
1.694162896797048e-001	8.075304e-001	7.799167e+000
1.700687259513644e-001	7.414007e-001	8.846027e+000
1.703443701620435e-001	7.097826e-001	9.120801e+000
1.706335266685376e-001	7.208595e-001	9.250784e+000
1.710089502131184e-001	7.302904e-001	9.247802e+000
1.713692129605282e-001	7.541857e-001	9.042443e+000
1.719536304285027e-001	8.499279e-001	8.271386e+000
1.728867934904825e-001	9.737334e-001	6.176518e+000
1.743019580355085e-001	3.151970e-001	2.286091e+000
1.752489852850101e-001	-1.440747e+000	5.034721e-001
1.762355406440023e-001	-4.491260e+000	-8.697641e-006
1.770862459622980e-001	-7.078822e+000	-5.611166e-006
1.779049727324093e-001	-8.889961e+000	-3.322481e-006
1.783108839726856e-001	-9.484069e+000	-2.252044e-006
1.786094825420365e-001	-9.780197e+000	-1.468652e-006
1.788846225068155e-001	-9.943525e+000	-7.641794e-007
1.791377447989101e-001	-9.999406e+000	-1.188222e-007
1.794059165843109e-001	-9.959352e+000	5.680544e-007
1.798060380041872e-001	-9.710910e+000	1.578669e-006
1.804538881415498e-001	-8.845489e+000	3.252395e-006
1.814813017172040e-001	-6.428402e+000	6.238230e-006
1.830079698504403e-001	-2.084042e+000	8.605244e-001
1.844095560904839e-001	4.436529e-001	3.503210e+000
1.856712920660623e-001	8.542824e-001	6.861953e+000
1.862450511151436e-001	7.858772e-001	8.115703e+000
1.868339852738245e-001	7.316866e-001	8.954756e+000
1.870851968920980e-001	7.089958e-001	9.168984e+000
1.873902402315584e-001	7.170200e-001	9.274421e+000
1.877091846498949e-001	7.253771e-001	9.243544e+000
1.880904830517568e-001	7.621489e-001	8.991103e+000
1.887084379061849e-001	8.651171e-001	8.114985e+000
1.896917288603310e-001	9.786129e-001	5.797679e+000
1.911674017753116e-001	9.043992e-002	1.780651e+000
1.920588337436955e-001	-1.775105e+000	3.020502e-001
1.928794182444663e-001	-4.414334e+000	-8.889750e-006
1.938764000580255e-001	-7.399857e+000	-5.352583e-006
1.947753615651384e-001	-9.215095e+000	-2.796083e-006
1.951262788772234e-001	-9.646843e+000	-1.872209e-006
1.953876143807192e-001	-9.859156e+000	-1.185552e-006
1.956859580008448e-001	-9.984569e+000	-4.191772e-007
1.960285090212837e-001	-9.972943e+000	4.493351e-007
1.964010308984906e-001	-9.771858e+000	1.401010e-006
1.970050090634402e-001	-9.040217e+000	2.946576e-006
1.979674876998643e-001	-6.934309e+000	5.637176e-006
1.994183605190205e-001	-2.712522e+000	5.373218e-001
2.007143970040783e-001	9.599948e-002	2.564773e+000
2.019809439929729e-001	8.596931e-001	5.933233e+000
2.026733237891599e-001	8.226085e-001	7.634092e+000
2.033666098711013e-001	7.503548e-001	8.798227e+000
2.036640064513497e-001	7.119846e-001	9.109004e+000
2.039525086943848e-001	7.216597e-001	9.245767e+000
2.043369219826084e-001	7.309923e-001	9.248416e+000
2.046938231175101e-001	7.529411e-001	9.050233e+000
2.052728693198422e-001	8.474874e-001	8.295478e+000
2.061979451231930e-001	9.724078e-001	6.236054e+000
2.076031036160606e-001	2.638988e-001	2.454363e+000
2.086677636527005e-001	-1.774742e+000	5.173068e-001
2.097110427234446e-001	-4.963448e+000	-8.540914e-006
2.106477781504958e-001	-7.659543e+000	-5.172516e-006
2.115432878615010e-001	-9.356596e+000	-2.543820e-006
2.118677441888259e-001	-9.717276e+000	-1.674190e-006
2.121248135869562e-001	-9.900137e+000	-1.001982e-006
2.124101467907915e-001	-9.994263e+000	-2.743830e-007
2.127165924310862e-001	-9.966683e+000	5.075011e-007
2.131025302955687e-001	-9.743126e+000	1.484062e-006
2.137278640604700e-001	-8.947644e+000	3.096889e-006
2.147220961969582e-001	-6.691665e+000	5.920991e-006
2.162106179202455e-001	-2.438851e+000	7.280450e-001
2.176033737711995e-001	2.924190e-001	3.165947e+000
2.188874934442498e-001	8.602366e-001	6.567690e+000
2.194990033545235e-001	8.002286e-001	7.961028e+000
