time	V(vin)-V(vout)	V(vout)
0.000000000000000e+000	3.581679e-007	-3.581679e-007
4.885659351291927e-006	1.841831e-002	1.807262e-007
1.465697805388966e-005	5.525392e-002	1.306820e-006
3.419961545907124e-005	1.289058e-001	2.013445e-005
7.328489026943441e-005	2.758144e-001	4.279652e-004
9.658504861757844e-005	3.615758e-001	2.460834e-003
1.137723323623163e-004	4.196447e-001	9.135400e-003
1.290966718349024e-004	4.614604e-001	2.503049e-002
1.464044456713359e-004	4.940525e-001	5.759908e-002
1.704889845396823e-004	5.226613e-001	1.196246e-001
1.954803290583895e-004	5.413997e-001	1.948769e-001
2.288098945616435e-004	5.573861e-001	3.041376e-001
2.801091716116144e-004	5.734786e-001	4.805466e-001
3.727037835050961e-004	5.925772e-001	8.078645e-001
4.727037835050990e-004	6.066815e-001	1.165953e+000
5.727037835051019e-004	6.168482e-001	1.525459e+000
6.727037835051047e-004	6.247122e-001	1.884225e+000
8.727037835051105e-004	6.365690e-001	2.594414e+000
1.072703783505116e-003	6.454651e-001	3.289205e+000
1.372703783505125e-003	6.555576e-001	4.291508e+000
1.672703783505133e-003	6.631970e-001	5.233053e+000
1.972703783505142e-003	6.691909e-001	6.100905e+000
2.272703783505151e-003	6.739678e-001	6.883470e+000
2.572703783505159e-003	6.777768e-001	7.570439e+000
2.872703783505168e-003	6.807728e-001	8.152829e+000
3.172703783505176e-003	6.830597e-001	8.623059e+000
3.472703783505185e-003	6.847010e-001	8.975027e+000
3.772703783505194e-003	6.857405e-001	9.204170e+000
4.072703783505202e-003	6.862020e-001	9.307525e+000
4.372703783505211e-003	6.860962e-001	9.283752e+000
4.672703783505219e-003	6.854210e-001	9.133162e+000
4.972703783505228e-003	6.841612e-001	8.857699e+000
5.272703783505237e-003	6.822844e-001	8.460934e+000
5.572703783505245e-003	6.797419e-001	7.948008e+000
5.872703783505254e-003	6.764560e-001	7.325585e+000
6.172703783505262e-003	6.723080e-001	6.601779e+000
6.472703783505271e-003	6.671133e-001	5.786077e+000
6.772703783505280e-003	6.605692e-001	4.889269e+000
7.072703783505288e-003	6.521399e-001	3.923434e+000
7.372703783505297e-003	6.407585e-001	2.902086e+000
7.572703783505302e-003	6.303785e-001	2.197991e+000
7.672703783505305e-003	6.237837e-001	1.841064e+000
7.772703783505308e-003	6.157070e-001	1.482117e+000
7.872703783505311e-003	6.052878e-001	1.122530e+000
7.972703783505314e-003	5.903445e-001	7.650125e-001
8.072703783505317e-003	5.622247e-001	4.187454e-001
8.172703783505320e-003	5.012624e-001	1.039267e-001
8.207292278382905e-003	4.493037e-001	2.568110e-002
8.226577411052774e-003	3.966412e-001	5.710549e-003
8.242417738680091e-003	3.415955e-001	1.081062e-003
8.254407668975908e-003	2.972230e-001	2.758977e-004
8.269126548506992e-003	2.419603e-001	6.992443e-005
8.290073676922402e-003	1.630672e-001	1.063859e-005
8.321372077836189e-003	4.509178e-002	9.402655e-007
8.371680788481217e-003	-1.446011e-001	3.962836e-005
8.408436732366978e-003	-2.836480e-001	5.526337e-004
8.432949103861012e-003	-3.787039e-001	3.249565e-003
8.449829385135235e-003	-4.503072e-001	1.126860e-002
8.465782859770357e-003	-5.292519e-001	3.013645e-002
8.483102798450590e-003	-6.292192e-001	6.490160e-002
8.505755063313109e-003	-7.744389e-001	1.248819e-001
8.530687197970621e-003	-9.441672e-001	2.008469e-001
8.566304042689987e-003	-1.195360e+000	3.182100e-001
8.619540291794653e-003	-1.578714e+000	5.018314e-001
8.715735317523565e-003	-2.278971e+000	8.423374e-001
8.815735317523568e-003	-3.009172e+000	1.200567e+000
8.915735317523571e-003	-3.738272e+000	1.560266e+000
9.015735317523574e-003	-4.463297e+000	1.918985e+000
9.215735317523580e-003	-5.894066e+000	2.628505e+000
9.415735317523585e-003	-7.290669e+000	3.322413e+000
9.715735317523594e-003	-9.301776e+000	4.322969e+000
1.001573531752360e-002	-1.118807e+001	5.262327e+000
1.031573531752361e-002	-1.292455e+001	6.127596e+000
1.061573531752362e-002	-1.448855e+001	6.907225e+000
1.091573531752363e-002	-1.585978e+001	7.590946e+000
1.121573531752364e-002	-1.702050e+001	8.169821e+000
1.151573531752365e-002	-1.795576e+001	8.636316e+000
1.181573531752365e-002	-1.865349e+001	8.984375e+000
1.211573531752366e-002	-1.910475e+001	9.209491e+000
1.241573531752367e-002	-1.930370e+001	9.308747e+000
1.271573531752368e-002	-1.924781e+001	9.280861e+000
1.301573531752369e-002	-1.893778e+001	9.126194e+000
1.331573531752370e-002	-1.837760e+001	8.846746e+000
1.361573531752371e-002	-1.757449e+001	8.446136e+000
1.391573531752371e-002	-1.653877e+001	7.929559e+000
1.421573531752372e-002	-1.528379e+001	7.303724e+000
1.451573531752373e-002	-1.382574e+001	6.576793e+000
1.481573531752374e-002	-1.218351e+001	5.758292e+000
1.511573531752375e-002	-1.037844e+001	4.859057e+000
1.541573531752376e-002	-8.434240e+000	3.891207e+000
1.571573531752377e-002	-6.376943e+000	2.868312e+000
1.591573531752377e-002	-4.956776e+000	2.163493e+000
1.601573531752377e-002	-4.235722e+000	1.806323e+000
1.611573531752378e-002	-3.509305e+000	1.447243e+000
1.621573531752378e-002	-2.779493e+000	1.087698e+000
1.631573531752378e-002	-2.049758e+000	7.306334e-001
1.641573531752379e-002	-1.331735e+000	3.871569e-001
1.651573531752379e-002	-6.545156e-001	8.582483e-002
1.655305760830877e-002	-4.436702e-001	1.550506e-002
1.657572262921847e-002	-3.442246e-001	1.440833e-003
1.658720276410805e-002	-2.998172e-001	2.901871e-004
1.660303966355231e-002	-2.399126e-001	6.742519e-005
1.662142777418420e-002	-1.705493e-001	1.099587e-005
1.665384294590459e-002	-4.834634e-002	2.239943e-006
1.671637238316875e-002	1.872380e-001	1.371684e-004
1.675311019484480e-002	3.242977e-001	1.529055e-003
1.677611765511849e-002	4.052992e-001	7.204226e-003
1.679243426748470e-002	4.525204e-001	2.143469e-002
1.681233206258284e-002	4.926196e-001	5.625004e-002
1.683334007930551e-002	5.189960e-001	1.089346e-001
1.686322853158548e-002	5.419176e-001	1.984252e-001
1.689131345103723e-002	5.558027e-001	2.900837e-001
1.694748328994071e-002	5.736615e-001	4.830159e-001
1.702626099480183e-002	5.905205e-001	7.609698e-001
1.712626099480183e-002	6.051179e-001	1.118856e+000
1.722626099480183e-002	6.156921e-001	1.478315e+000
1.732626099480183e-002	6.237867e-001	1.837279e+000
1.752626099480184e-002	6.358991e-001	2.548274e+000
1.772626099480185e-002	6.449468e-001	3.244241e+000
1.802626099480185e-002	6.551762e-001	4.248879e+000
1.832626099480186e-002	6.629019e-001	5.193360e+000
1.862626099480187e-002	6.689572e-001	6.064683e+000
1.892626099480188e-002	6.737804e-001	6.851201e+000
1.922626099480189e-002	6.776276e-001	7.542544e+000
1.952626099480190e-002	6.806583e-001	8.129673e+000
1.982626099480191e-002	6.829739e-001	8.604943e+000
2.012626099480191e-002	6.846428e-001	8.962185e+000
2.042626099480192e-002	6.857071e-001	9.196770e+000
2.072626099480193e-002	6.861944e-001	9.305660e+000
2.102626099480194e-002	6.861134e-001	9.287449e+000
2.132626099480195e-002	6.854620e-001	9.142371e+000
2.162626099480196e-002	6.842279e-001	8.872303e+000
2.192626099480197e-002	6.823797e-001	8.480742e+000
2.222626099480198e-002	6.798677e-001	7.972763e+000
2.252626099480198e-002	6.766167e-001	7.354966e+000
2.282626099480199e-002	6.725097e-001	6.635402e+000
2.312626099480200e-002	6.673656e-001	5.823499e+000
2.342626099480201e-002	6.608891e-001	4.929993e+000
2.372626099480202e-002	6.525590e-001	3.966903e+000
2.402626099480203e-002	6.413429e-001	2.947674e+000
2.422626099480203e-002	6.311598e-001	2.244579e+000
2.432626099480204e-002	6.247201e-001	1.887994e+000
2.442626099480204e-002	6.168745e-001	1.529245e+000
2.452626099480204e-002	6.067958e-001	1.169679e+000
2.462626099480204e-002	5.926161e-001	8.116896e-001
2.472626099480205e-002	5.676447e-001	4.624963e-001
2.482626099480205e-002	5.178960e-001	1.366164e-001
2.486192405730130e-002	4.751262e-001	4.517278e-002
2.488506221036195e-002	4.200958e-001	1.307386e-002
2.490991012237334e-002	3.382656e-001	1.299970e-003
2.491862136470470e-002	3.064234e-001	3.187426e-004
2.493548134673193e-002	2.431279e-001	7.770300e-005
2.495277546622279e-002	1.780097e-001	1.315878e-005
2.498709624755988e-002	4.864456e-002	1.251395e-006
2.503333818459735e-002	-1.257568e-001	7.813052e-005
2.508391131046475e-002	-3.179694e-001	1.683973e-003
2.511026778514033e-002	-4.241311e-001	8.551087e-003
2.512884860982911e-002	-5.117828e-001	2.622595e-002
2.514962294125031e-002	-6.292472e-001	6.548107e-002
2.517307980815225e-002	-7.790436e-001	1.270110e-001
2.520075643110695e-002	-9.677582e-001	2.116466e-001
2.523254757743618e-002	-1.192328e+000	3.167667e-001
2.529612987009461e-002	-1.650818e+000	5.367518e-001
2.538851065803607e-002	-2.323616e+000	8.641961e-001
2.548851065803606e-002	-3.054024e+000	1.222775e+000
2.558851065803605e-002	-3.782771e+000	1.582295e+000
2.568851065803604e-002	-4.507386e+000	1.940809e+000
2.588851065803602e-002	-5.937280e+000	2.649961e+000
2.608851065803600e-002	-7.332688e+000	3.343304e+000
2.638851065803596e-002	-9.341518e+000	4.342753e+000
2.668851065803593e-002	-1.122500e+001	5.280726e+000
2.698851065803590e-002	-1.295819e+001	6.144362e+000
2.728851065803586e-002	-1.451846e+001	6.922137e+000
2.758851065803583e-002	-1.588557e+001	7.603807e+000
2.788851065803580e-002	-1.704184e+001	8.180464e+000
2.818851065803577e-002	-1.797237e+001	8.644602e+000
2.848851065803573e-002	-1.866517e+001	8.990198e+000
2.878851065803570e-002	-1.911133e+001	9.212774e+000
2.908851065803567e-002	-1.930511e+001	9.309449e+000
2.938851065803563e-002	-1.924402e+001	9.278973e+000
2.968851065803560e-002	-1.892885e+001	9.121739e+000
2.998851065803557e-002	-1.836364e+001	8.839783e+000
3.028851065803553e-002	-1.755568e+001	8.436754e+000
3.058851065803550e-002	-1.651535e+001	7.917880e+000
3.088851065803547e-002	-1.525606e+001	7.289901e+000
3.118851065803543e-002	-1.379407e+001	6.561005e+000
3.148851065803540e-002	-1.214830e+001	5.740748e+000
3.178851065803537e-002	-1.034016e+001	4.839991e+000
3.208851065803534e-002	-8.393384e+000	3.870879e+000
3.238851065803530e-002	-6.334074e+000	2.847017e+000
3.258851065803528e-002	-4.912916e+000	2.141754e+000
3.268851065803527e-002	-4.191486e+000	1.784434e+000
3.278851065803526e-002	-3.464797e+000	1.425275e+000
3.288851065803525e-002	-2.734921e+000	1.065828e+000
3.298851065803524e-002	-2.005438e+000	7.091454e-001
3.308851065803523e-002	-1.289415e+000	3.677655e-001
3.318851065803521e-002	-6.131660e-001	6.746853e-002
3.321662618011795e-002	-4.553805e-001	1.554686e-002
3.323918431418693e-002	-3.567769e-001	1.917984e-003
3.325042176546844e-002	-3.129310e-001	4.126572e-004
3.326599387075646e-002	-2.539336e-001	9.712920e-005
3.328255774550620e-002	-1.914264e-001	1.864230e-005
3.331331872854157e-002	-7.545425e-002	1.684012e-006
3.336071674054519e-002	1.032110e-001	2.022265e-005
3.340277016747389e-002	2.612638e-001	4.770495e-004
3.343213281403448e-002	3.689843e-001	3.394847e-003
3.345038959568292e-002	4.291394e-001	1.200906e-002
3.346669675226058e-002	4.708006e-001	3.175582e-002
3.348444062694075e-002	5.012060e-001	6.814709e-002
3.350763585885147e-002	5.262410e-001	1.303912e-001
3.353363084249225e-002	5.442175e-001	2.101690e-001
3.356753718484415e-002	5.593132e-001	3.224678e-001
3.363193819736524e-002	5.779665e-001	5.453713e-001
3.372093991811789e-002	5.951296e-001	8.609182e-001
3.382093991811788e-002	6.083727e-001	1.219526e+000
3.392093991811787e-002	6.181216e-001	1.579030e+000
3.402093991811786e-002	6.257386e-001	1.937543e+000
3.422093991811784e-002	6.373150e-001	2.646786e+000
3.442093991811782e-002	6.460450e-001	3.340214e+000
3.472093991811778e-002	6.559858e-001	4.339827e+000
3.502093991811775e-002	6.635294e-001	5.278005e+000
3.532093991811772e-002	6.694546e-001	6.141883e+000
3.562093991811768e-002	6.741776e-001	6.919932e+000
3.592093991811765e-002	6.779432e-001	7.601907e+000
3.622093991811762e-002	6.809034e-001	8.178892e+000
3.652093991811758e-002	6.831560e-001	8.643379e+000
3.682093991811755e-002	6.847668e-001	8.989340e+000
3.712093991811752e-002	6.857767e-001	9.212292e+000
3.742093991811749e-002	6.862097e-001	9.309349e+000
3.772093991811745e-002	6.860762e-001	9.279256e+000
3.802093991811742e-002	6.853724e-001	9.122402e+000
3.832093991811739e-002	6.840830e-001	8.840816e+000
3.862093991811735e-002	6.821737e-001	8.438147e+000
3.892093991811732e-002	6.795974e-001	7.919611e+000
3.922093991811729e-002	6.762719e-001	7.291949e+000
3.952093991811725e-002	6.720762e-001	6.563344e+000
3.982093991811722e-002	6.668234e-001	5.743347e+000
4.012093991811719e-002	6.602001e-001	4.842814e+000
4.042093991811716e-002	6.516564e-001	3.873889e+000
4.072093991811712e-002	6.400819e-001	2.850169e+000
4.092093991811710e-002	6.294692e-001	2.144968e+000
4.102093991811709e-002	6.226887e-001	1.787672e+000
4.112093991811708e-002	6.143322e-001	1.428526e+000
4.122093991811707e-002	6.033814e-001	1.069072e+000
4.132093991811706e-002	5.873323e-001	7.123398e-001
4.142093991811705e-002	5.544165e-001	3.706271e-001
4.152093991811703e-002	4.781892e-001	7.091138e-002
4.155137376247603e-002	4.193572e-001	1.514994e-002
4.157456131717272e-002	3.455321e-001	1.627128e-003
4.158574353158689e-002	3.046923e-001	3.334021e-004
4.160133211770234e-002	2.462012e-001	7.933367e-005
4.161895230184332e-002	1.798552e-001	1.398384e-005
4.165041232594260e-002	6.127589e-002	1.147828e-006
4.169727803932788e-002	-1.155184e-001	1.188530e-004
4.175534976086695e-002	-3.384725e-001	4.207358e-003
4.178820762415295e-002	-4.778428e-001	1.980452e-002
4.180839087606750e-002	-5.824206e-001	4.838705e-002
4.182989206446103e-002	-7.144160e-001	9.945901e-002
4.185575498218611e-002	-8.871495e-001	1.749069e-001
4.188452910716070e-002	-1.087885e+000	2.674862e-001
4.192977804306541e-002	-1.411803e+000	4.215227e-001
4.201331468862363e-002	-2.018262e+000	7.151464e-001
4.211331468862362e-002	-2.748242e+000	1.072365e+000
4.221331468862360e-002	-3.478001e+000	1.431742e+000
4.231331468862359e-002	-4.204612e+000	1.790881e+000
4.241331468862358e-002	-4.925992e+000	2.148218e+000
4.261331468862356e-002	-6.346885e+000	2.853380e+000
4.291331468862353e-002	-8.405599e+000	3.876957e+000
4.321331468862349e-002	-1.035161e+001	4.845693e+000
4.351331468862346e-002	-1.215883e+001	5.745996e+000
4.381331468862343e-002	-1.380354e+001	6.565727e+000
4.411331468862340e-002	-1.526436e+001	7.294037e+000
4.441331468862336e-002	-1.652236e+001	7.921375e+000
4.471331468862333e-002	-1.756131e+001	8.439564e+000
4.501331468862330e-002	-1.836783e+001	8.841869e+000
4.531331468862326e-002	-1.893153e+001	9.123076e+000
4.561331468862323e-002	-1.924516e+001	9.279543e+000
4.591331468862320e-002	-1.930470e+001	9.309245e+000
4.621331468862316e-002	-1.910937e+001	9.211798e+000
4.651331468862313e-002	-1.866169e+001	8.988463e+000
4.681331468862310e-002	-1.796741e+001	8.642131e+000
4.711331468862307e-002	-1.703547e+001	8.177288e+000
4.741331468862303e-002	-1.587787e+001	7.599968e+000
4.771331468862300e-002	-1.450953e+001	6.917684e+000
4.801331468862297e-002	-1.294815e+001	6.139355e+000
4.831331468862293e-002	-1.121397e+001	5.275230e+000
4.861331468862290e-002	-9.329647e+000	4.336843e+000
4.891331468862287e-002	-7.320136e+000	3.337063e+000
4.911331468862284e-002	-5.924375e+000	2.643555e+000
4.931331468862282e-002	-4.494228e+000	1.934303e+000
4.941331468862281e-002	-3.769534e+000	1.575771e+000
4.951331468862280e-002	-3.040662e+000	1.216178e+000
4.961331468862279e-002	-2.310345e+000	8.577332e-001
4.971331468862278e-002	-1.585100e+000	5.064246e-001
4.981331468862277e-002	-8.768142e-001	1.736080e-001
4.985236436611790e-002	-6.216964e-001	6.541045e-002
4.987906616021717e-002	-4.746587e-001	1.890674e-002
4.990050746515484e-002	-3.780484e-001	3.058335e-003
4.991271803367350e-002	-3.296725e-001	6.865768e-004
4.992877059978373e-002	-2.686427e-001	1.464937e-004
4.994328817252614e-002	-2.138135e-001	3.118518e-005
4.996960059076944e-002	-1.146041e-001	3.492320e-006
5.000683421082353e-002	2.572751e-002	3.682544e-005
5.008027277082960e-002	3.005867e-001	1.988306e-003
5.011186372399951e-002	4.108770e-001	1.071436e-002
5.013238008178569e-002	4.665085e-001	3.234548e-002
5.015506819405050e-002	5.050310e-001	7.922937e-002
5.018279484497298e-002	5.326847e-001	1.558903e-001
5.020904943646845e-002	5.488176e-001	2.384646e-001
5.024943071008262e-002	5.646882e-001	3.742583e-001
5.031515009991300e-002	5.817890e-001	6.035057e-001
5.041515009991299e-002	5.991741e-001	9.595234e-001
5.051515009991298e-002	6.113085e-001	1.318577e+000
5.061515009991296e-002	6.203673e-001	1.677963e+000
5.071515009991295e-002	6.275663e-001	2.035943e+000
5.091515009991293e-002	6.386542e-001	2.743345e+000
5.121515009991290e-002	6.506412e-001	3.771814e+000
5.151515009991287e-002	6.594281e-001	4.746975e+000
5.181515009991283e-002	6.662164e-001	5.655056e+000
5.211515009991280e-002	6.715927e-001	6.483779e+000
5.241515009991277e-002	6.758852e-001	7.222159e+000
5.271515009991273e-002	6.792932e-001	7.860507e+000
5.301515009991270e-002	6.819429e-001	8.390498e+000
5.331515009991267e-002	6.839161e-001	8.805243e+000
5.361515009991263e-002	6.852684e-001	9.099362e+000
5.391515009991260e-002	6.860304e-001	9.269050e+000
5.421515009991257e-002	6.862230e-001	9.312107e+000
5.451515009991254e-002	6.858473e-001	9.227980e+000
5.481515009991250e-002	6.848965e-001	9.017755e+000
5.511515009991247e-002	6.833487e-001	8.684153e+000
5.541515009991244e-002	6.811647e-001	8.231495e+000
5.571515009991240e-002	6.782808e-001	7.665656e+000
5.601515009991237e-002	6.746030e-001	6.993998e+000
5.631515009991234e-002	6.699867e-001	6.225293e+000
5.661515009991230e-002	6.641998e-001	5.369656e+000
5.691515009991227e-002	6.568484e-001	4.438486e+000
5.721515009991224e-002	6.472058e-001	3.444502e+000
5.741515009991222e-002	6.387956e-001	2.753962e+000
5.761515009991219e-002	6.277254e-001	2.046804e+000
5.771515009991218e-002	6.205633e-001	1.688894e+000
5.781515009991217e-002	6.116244e-001	1.329479e+000
5.791515009991216e-002	5.996564e-001	9.703349e-001
5.801515009991215e-002	5.811685e-001	6.154795e-001
5.811515009991214e-002	5.458816e-001	2.757227e-001
5.818150121527746e-002	4.937245e-001	7.835656e-002
5.820995788413738e-002	4.438125e-001	2.113434e-002
5.822873122554306e-002	3.897368e-001	4.501661e-003
5.824240428900909e-002	3.417158e-001	1.011549e-003
5.825538119501994e-002	2.935707e-001	2.595987e-004
5.826998428461042e-002	2.387340e-001	6.363408e-005
5.829165354022328e-002	1.571132e-001	9.423142e-006
5.832411637824259e-002	3.474592e-002	1.115535e-006
5.837507837240588e-002	-1.574399e-001	7.129995e-005
5.841454709560887e-002	-3.070448e-001	9.239384e-004
5.843734792416228e-002	-3.967801e-001	4.754840e-003
5.845457802064644e-002	-4.729681e-001	1.604558e-002
5.847218752487077e-002	-5.648669e-001	4.163797e-002
5.849025958675566e-002	-6.736157e-001	8.236270e-002
5.851424559354959e-002	-8.313360e-001	1.498414e-001
5.854049224216898e-002	-1.012544e+000	2.323669e-001
5.858152693383634e-002	-1.304433e+000	3.701298e-001
5.864933275102979e-002	-1.795030e+000	6.065564e-001
5.874933275102978e-002	-2.524334e+000	9.624740e-001
5.884933275102977e-002	-3.254507e+000	1.321480e+000
5.894933275102976e-002	-3.982426e+000	1.680979e+000
5.904933275102975e-002	-4.705606e+000	2.039011e+000
5.924933275102973e-002	-6.131329e+000	2.746317e+000
5.954933275102969e-002	-8.199984e+000	3.774657e+000
5.984933275102966e-002	-1.015874e+001	4.749647e+000
6.014933275102963e-002	-1.198127e+001	5.657520e+000
6.044933275102959e-002	-1.364361e+001	6.486002e+000
6.074933275102956e-002	-1.512412e+001	7.224112e+000
6.104933275102953e-002	-1.640363e+001	7.862164e+000
6.134933275102950e-002	-1.746563e+001	8.391838e+000
6.164933275102946e-002	-1.829642e+001	8.806248e+000
6.194933275102943e-002	-1.888531e+001	9.100019e+000
6.224933275102940e-002	-1.922473e+001	9.269350e+000
6.254933275102936e-002	-1.931032e+001	9.312048e+000
6.284933275102933e-002	-1.914097e+001	9.227562e+000
6.314933275102930e-002	-1.871886e+001	9.016982e+000
6.344933275102926e-002	-1.804942e+001	8.683037e+000
6.374933275102923e-002	-1.714126e+001	8.230049e+000
6.404933275102920e-002	-1.600607e+001	7.663900e+000
6.434933275102917e-002	-1.465850e+001	6.991954e+000
6.464933275102913e-002	-1.311595e+001	6.222988e+000
6.494933275102910e-002	-1.139842e+001	5.367121e+000
6.524933275102907e-002	-9.528333e+000	4.435754e+000
