time	V(vout)	V(vt)	V(vx)-V(vout)	I(D1)
0.000000000000000e+000	1.025290e+001	0.000000e+000	-1.025290e+001	-1.070253e-009
9.999999717180685e-010	1.025291e+001	4.500000e-006	-1.025290e+001	6.378223e-008
1.999999943436137e-009	1.025291e+001	8.999999e-006	-1.025290e+001	1.047782e-007
3.999999886872274e-009	1.025291e+001	1.800000e-005	-1.025289e+001	1.377440e-007
7.999999773744548e-009	1.025291e+001	3.600000e-005	-1.025288e+001	1.518922e-007
2.615885708988106e-004	1.025291e+001	1.177148e+000	-9.370048e+000	1.569106e-007
5.231691417978475e-004	1.025291e+001	2.354261e+000	-8.487213e+000	1.634252e-007
7.847497126968844e-004	1.025291e+001	3.531373e+000	-7.604379e+000	1.714361e-007
1.046330283595921e-003	1.025291e+001	4.708486e+000	-6.721545e+000	1.809431e-007
1.307910854494958e-003	1.025291e+001	5.885599e+000	-5.838711e+000	1.919464e-007
1.569491425393995e-003	1.025291e+001	7.062712e+000	-4.955876e+000	2.044459e-007
1.831071996293031e-003	1.025291e+001	8.239824e+000	-4.073042e+000	2.184417e-007
2.131071996293031e-003	1.025291e+001	9.589824e+000	-3.060543e+000	2.416380e-007
2.431071996293031e-003	1.025291e+001	1.093982e+001	-2.048044e+000	2.752369e-007
2.631071996293030e-003	1.025291e+001	1.183982e+001	-1.373044e+000	3.084537e-007
2.731071996293030e-003	1.025291e+001	1.228982e+001	-1.035544e+000	3.308427e-007
2.831071996293030e-003	1.025291e+001	1.273982e+001	-6.980448e-001	3.595369e-007
2.931071996293030e-003	1.025291e+001	1.318982e+001	-3.605471e-001	3.984792e-007
3.031071996293030e-003	1.025293e+001	1.363982e+001	-2.309418e-002	2.377772e-006
3.131071996293029e-003	1.025390e+001	1.408982e+001	3.117609e-001	1.137153e-004
3.171828591043919e-003	1.025803e+001	1.427323e+001	4.381275e-001	5.854570e-004
3.194446867885239e-003	1.026651e+001	1.437501e+001	4.914417e-001	1.556732e-003
3.217458354462529e-003	1.028271e+001	1.447856e+001	5.251598e-001	3.408164e-003
3.243107781582840e-003	1.030610e+001	1.459398e+001	5.482693e-001	6.083528e-003
3.269506022196798e-003	1.033329e+001	1.471278e+001	5.636091e-001	9.203815e-003
3.322302503424714e-003	1.039153e+001	1.495036e+001	5.838184e-001	1.588100e-002
3.376292201587446e-003	1.045363e+001	1.519331e+001	5.975800e-001	2.296174e-002
3.532503310158812e-003	1.063966e+001	1.589627e+001	6.201630e-001	4.416578e-002
3.742145694421839e-003	1.089484e+001	1.683966e+001	6.354806e-001	7.329912e-002
3.951788078684866e-003	1.115077e+001	1.778305e+001	6.487516e-001	1.025192e-001
4.161430462947893e-003	1.140747e+001	1.872644e+001	6.599760e-001	1.318261e-001
4.371072847210920e-003	1.166491e+001	1.966983e+001	6.691537e-001	1.612198e-001
4.580715231473947e-003	1.192311e+001	2.061322e+001	6.762848e-001	1.907002e-001
4.790357615736974e-003	1.218206e+001	2.155661e+001	6.813694e-001	2.202674e-001
5.000000000000000e-003	1.244177e+001	2.250000e+001	6.844072e-001	2.499214e-001
5.207142857142858e-003	1.218520e+001	2.156786e+001	6.813106e-001	2.206254e-001
5.414285714285715e-003	1.192933e+001	2.063571e+001	6.762748e-001	1.914114e-001
5.621428571428573e-003	1.167419e+001	1.970357e+001	6.692996e-001	1.622792e-001
5.828571428571431e-003	1.141975e+001	1.877143e+001	6.603852e-001	1.332289e-001
6.035714285714288e-003	1.116604e+001	1.783929e+001	6.495316e-001	1.042605e-001
6.242857142857146e-003	1.091303e+001	1.690714e+001	6.367386e-001	7.537391e-002
6.450000000000004e-003	1.066075e+001	1.597500e+001	6.220064e-001	4.656922e-002
6.550000000000004e-003	1.054116e+001	1.552500e+001	6.089115e-001	3.292090e-002
6.650000000000004e-003	1.042472e+001	1.507500e+001	5.872622e-001	1.963204e-002
6.750000000000004e-003	1.031523e+001	1.462500e+001	5.467834e-001	7.125322e-003
6.792828658827357e-003	1.027539e+001	1.443227e+001	5.103016e-001	2.572212e-003
6.814714070809883e-003	1.026138e+001	1.433379e+001	4.744377e-001	9.697919e-004
6.831734869835555e-003	1.025570e+001	1.425719e+001	4.324112e-001	3.191586e-004
6.847114614465350e-003	1.025363e+001	1.418798e+001	3.861198e-001	8.265513e-005
6.857781148721156e-003	1.025315e+001	1.413999e+001	3.514109e-001	2.835534e-005
6.871239900381274e-003	1.025298e+001	1.407942e+001	3.064537e-001	8.726202e-006
6.886588089009834e-003	1.025292e+001	1.401035e+001	2.548113e-001	2.044137e-006
6.908758107108177e-003	1.025290e+001	1.391059e+001	1.800365e-001	8.405106e-009
6.940644097160113e-003	1.025290e+001	1.376710e+001	7.243061e-002	-4.162579e-007
6.992030356168280e-003	1.025290e+001	1.353586e+001	-1.009970e-001	-4.367475e-007
7.092030356168281e-003	1.025290e+001	1.308586e+001	-4.384975e-001	-3.902746e-007
7.192030356168281e-003	1.025290e+001	1.263586e+001	-7.759991e-001	-3.543144e-007
7.292030356168281e-003	1.025290e+001	1.218586e+001	-1.113500e+000	-3.273290e-007
7.392030356168282e-003	1.025290e+001	1.173586e+001	-1.450999e+000	-3.060647e-007
7.592030356168282e-003	1.025290e+001	1.083586e+001	-2.126001e+000	-2.742207e-007
7.892030356168282e-003	1.025290e+001	9.485864e+000	-3.138502e+000	-2.416898e-007
8.106316070453996e-003	1.025290e+001	8.521578e+000	-3.861717e+000	-2.262179e-007
8.320601784739708e-003	1.025290e+001	7.557292e+000	-4.584931e+000	-2.124385e-007
8.534887499025421e-003	1.025290e+001	6.593006e+000	-5.308145e+000	-2.003514e-007
8.749173213311133e-003	1.025290e+001	5.628720e+000	-6.031360e+000	-1.899568e-007
8.963458927596847e-003	1.025290e+001	4.664435e+000	-6.754574e+000	-1.812546e-007
9.177744641882561e-003	1.025290e+001	3.700149e+000	-7.477789e+000	-1.742448e-007
9.392030356168273e-003	1.025290e+001	2.735863e+000	-8.201003e+000	-1.689274e-007
9.947817862990387e-003	1.025290e+001	2.348196e-001	-1.007679e+001	-1.554495e-007
1.000000000000000e-002	1.025291e+001	0.000000e+000	-1.025291e+001	3.700299e-007
1.000521821370096e-002	1.025291e+001	2.348196e-002	-1.023530e+001	2.249341e-007
1.001565464110288e-002	1.025291e+001	7.044589e-002	-1.020007e+001	1.525538e-007
1.027938463876387e-002	1.025291e+001	1.257231e+000	-9.309986e+000	1.574522e-007
1.054311463642486e-002	1.025291e+001	2.444016e+000	-8.419897e+000	1.639531e-007
1.080684463408584e-002	1.025291e+001	3.630801e+000	-7.529809e+000	1.720564e-007
1.107057463174683e-002	1.025291e+001	4.817586e+000	-6.639720e+000	1.817621e-007
1.133430462940782e-002	1.025291e+001	6.004371e+000	-5.749632e+000	1.930702e-007
1.159803462706881e-002	1.025291e+001	7.191156e+000	-4.859543e+000	2.059807e-007
1.186176462472979e-002	1.025291e+001	8.377941e+000	-3.969454e+000	2.204936e-007
1.216176462472979e-002	1.025291e+001	9.727941e+000	-2.956955e+000	2.444866e-007
1.236176462472979e-002	1.025291e+001	1.062794e+001	-2.281956e+000	2.661453e-007
1.256176462472979e-002	1.025291e+001	1.152794e+001	-1.606956e+000	2.955194e-007
1.266176462472979e-002	1.025291e+001	1.197794e+001	-1.269457e+000	3.147991e-007
1.276176462472979e-002	1.025291e+001	1.242794e+001	-9.319572e-001	3.388503e-007
1.286176462472979e-002	1.025291e+001	1.287794e+001	-5.944576e-001	3.701177e-007
1.296176462472978e-002	1.025291e+001	1.332794e+001	-2.569590e-001	4.159188e-007
1.306176462472978e-002	1.025295e+001	1.377794e+001	8.043861e-002	4.712712e-006
1.313806351394071e-002	1.025410e+001	1.412129e+001	3.348103e-001	1.367789e-004
1.317457034887459e-002	1.025835e+001	1.428557e+001	4.465017e-001	6.220604e-004
1.319415880483613e-002	1.026600e+001	1.437371e+001	4.918585e-001	1.496747e-003
1.321567542070404e-002	1.028117e+001	1.447054e+001	5.233183e-001	3.230191e-003
1.324099174067543e-002	1.030403e+001	1.458446e+001	5.467472e-001	5.846597e-003
1.326726156261299e-002	1.033090e+001	1.470268e+001	5.625229e-001	8.933029e-003
1.331980120648810e-002	1.038865e+001	1.493911e+001	5.831785e-001	1.555708e-002
1.337222955816283e-002	1.044886e+001	1.517503e+001	5.968161e-001	2.241885e-002
1.351077785716732e-002	1.061353e+001	1.579850e+001	6.177015e-001	4.118118e-002
1.372352387757199e-002	1.087231e+001	1.675586e+001	6.337569e-001	7.072525e-002
1.393626989797666e-002	1.113188e+001	1.771321e+001	6.476369e-001	1.003613e-001
1.414901591838133e-002	1.139225e+001	1.867057e+001	6.593416e-001	1.300894e-001
1.436176193878601e-002	1.165343e+001	1.962793e+001	6.688709e-001	1.599094e-001
1.457450795919068e-002	1.191541e+001	2.058529e+001	6.762250e-001	1.898214e-001
1.478725397959535e-002	1.217819e+001	2.154264e+001	6.814038e-001	2.198254e-001
1.500000000000002e-002	1.244177e+001	2.250000e+001	6.844072e-001	2.499214e-001
1.520202356835423e-002	1.219161e+001	2.159089e+001	6.811885e-001	2.213579e-001
1.540404713670844e-002	1.194208e+001	2.068179e+001	6.762494e-001	1.928670e-001
1.560607070506265e-002	1.169319e+001	1.977268e+001	6.695899e-001	1.644488e-001
1.580809427341686e-002	1.144493e+001	1.886358e+001	6.612101e-001	1.361031e-001
1.601011784177107e-002	1.119730e+001	1.795447e+001	6.511100e-001	1.078300e-001
1.621214141012529e-002	1.095031e+001	1.704536e+001	6.392895e-001	7.962942e-002
1.641416497847950e-002	1.070395e+001	1.613626e+001	6.257486e-001	5.150148e-002
1.651416497847950e-002	1.058381e+001	1.568626e+001	6.141634e-001	3.778713e-002
1.661416497847950e-002	1.046570e+001	1.523626e+001	5.970449e-001	2.432159e-002
1.671416497847950e-002	1.035617e+001	1.478626e+001	5.566645e-001	1.183079e-002
1.681416497847950e-002	1.026657e+001	1.433626e+001	4.622183e-001	1.570980e-003
1.683901173182078e-002	1.025524e+001	1.422445e+001	4.090900e-001	2.689323e-004
1.686344371067268e-002	1.025315e+001	1.411450e+001	3.322945e-001	2.869405e-005
1.687664620364538e-002	1.025295e+001	1.405509e+001	2.883005e-001	4.803266e-006
1.688998740980614e-002	1.025292e+001	1.399506e+001	2.433586e-001	1.200545e-006
1.691420315908492e-002	1.025290e+001	1.388609e+001	1.616621e-001	-1.031998e-007
1.696128708233475e-002	1.025290e+001	1.367421e+001	2.760887e-003	-4.247632e-007
1.705545492883442e-002	1.025290e+001	1.325045e+001	-3.150558e-001	-4.063417e-007
1.715545492883442e-002	1.025290e+001	1.280045e+001	-6.525574e-001	-3.661776e-007
1.725545492883442e-002	1.025290e+001	1.235045e+001	-9.900570e-001	-3.364104e-007
1.735545492883442e-002	1.025290e+001	1.190045e+001	-1.327558e+000	-3.133085e-007
1.755545492883441e-002	1.025290e+001	1.100045e+001	-2.002560e+000	-2.792461e-007
1.775545492883441e-002	1.025290e+001	1.010045e+001	-2.677559e+000	-2.548686e-007
1.805545492883441e-002	1.025290e+001	8.750453e+000	-3.690060e+000	-2.284818e-007
1.829831207169155e-002	1.025290e+001	7.657596e+000	-4.509703e+000	-2.138654e-007
1.854116921454869e-002	1.025290e+001	6.564739e+000	-5.329346e+000	-2.008473e-007
1.878402635740584e-002	1.025290e+001	5.471881e+000	-6.148989e+000	-1.894276e-007
1.902688350026298e-002	1.025290e+001	4.379024e+000	-6.968632e+000	-1.796061e-007
1.926974064312012e-002	1.025290e+001	3.286167e+000	-7.788275e+000	-1.713830e-007
1.951259778597726e-002	1.025290e+001	2.193310e+000	-8.607918e+000	-1.647582e-007
1.975545492883440e-002	1.025290e+001	1.100453e+000	-9.427561e+000	-1.597317e-007
1.995636056932501e-002	1.025290e+001	1.963774e-001	-1.010562e+001	-1.553867e-007
2.000000000000002e-002	1.025288e+001	0.000000e+000	-1.025284e+001	-2.627876e-006
2.000436394306752e-002	1.025290e+001	1.963774e-002	-1.023816e+001	-7.746270e-007
2.001309182920253e-002	1.025291e+001	5.891323e-002	-1.020872e+001	1.525002e-007
2.027340474432967e-002	1.025291e+001	1.230321e+000	-9.330168e+000	1.573698e-007
2.053371765945682e-002	1.025291e+001	2.401729e+000	-8.451612e+000	1.637696e-007
2.079403057458397e-002	1.025291e+001	3.573138e+000	-7.573056e+000	1.716994e-007
2.105434348971111e-002	1.025291e+001	4.744546e+000	-6.694500e+000	1.811593e-007
2.131465640483826e-002	1.025291e+001	5.915954e+000	-5.815944e+000	1.921493e-007
2.157496931996540e-002	1.025291e+001	7.087362e+000	-4.937389e+000	2.046694e-007
2.183528223509255e-002	1.025291e+001	8.258770e+000	-4.058833e+000	2.187196e-007
2.213528223509255e-002	1.025291e+001	9.608770e+000	-3.046333e+000	2.420223e-007
2.243528223509255e-002	1.025291e+001	1.095877e+001	-2.033834e+000	2.758220e-007
2.263528223509255e-002	1.025291e+001	1.185877e+001	-1.358835e+000	3.092997e-007
2.273528223509255e-002	1.025291e+001	1.230877e+001	-1.021336e+000	3.319050e-007
2.283528223509255e-002	1.025291e+001	1.275877e+001	-6.838360e-001	3.609303e-007
2.293528223509254e-002	1.025291e+001	1.320877e+001	-3.463373e-001	4.004987e-007
2.303528223509254e-002	1.025293e+001	1.365877e+001	-8.905411e-003	3.324356e-006
2.313528223509254e-002	1.025426e+001	1.410877e+001	3.249826e-001	1.553511e-004
2.317584671808149e-002	1.025921e+001	1.429131e+001	4.484625e-001	7.218577e-004
2.319780250900626e-002	1.026840e+001	1.439011e+001	4.976358e-001	1.773285e-003
2.322086580152976e-002	1.028559e+001	1.449390e+001	5.288401e-001	3.737060e-003
2.324771865349902e-002	1.031072e+001	1.461473e+001	5.513096e-001	6.609585e-003
2.327490110414948e-002	1.033908e+001	1.473705e+001	5.661230e-001	9.862161e-003
2.332926600545040e-002	1.039950e+001	1.498170e+001	5.857143e-001	1.678586e-002
2.338655901202046e-002	1.046568e+001	1.523952e+001	5.995493e-001	2.433510e-002
2.354888838722566e-002	1.065937e+001	1.597000e+001	6.219893e-001	4.641687e-002
2.375619004619343e-002	1.091186e+001	1.690285e+001	6.367113e-001	7.524258e-002
2.396349170516120e-002	1.116506e+001	1.783571e+001	6.494983e-001	1.041504e-001
2.417079336412897e-002	1.141898e+001	1.876857e+001	6.603502e-001	1.331404e-001
2.437809502309674e-002	1.167361e+001	1.970143e+001	6.692671e-001	1.622124e-001
2.458539668206451e-002	1.192895e+001	2.063428e+001	6.762488e-001	1.913666e-001
2.479269834103227e-002	1.218500e+001	2.156714e+001	6.812956e-001	2.206029e-001
2.500000000000004e-002	1.244177e+001	2.250000e+001	6.844072e-001	2.499214e-001
2.520714285714290e-002	1.218520e+001	2.156786e+001	6.813106e-001	2.206254e-001
2.541428571428575e-002	1.192933e+001	2.063571e+001	6.762748e-001	1.914114e-001
2.562142857142861e-002	1.167419e+001	1.970357e+001	6.692996e-001	1.622792e-001
2.582857142857147e-002	1.141975e+001	1.877143e+001	6.603852e-001	1.332289e-001
2.603571428571432e-002	1.116604e+001	1.783929e+001	6.495316e-001	1.042605e-001
2.624285714285718e-002	1.091303e+001	1.690714e+001	6.367386e-001	7.537390e-002
2.645000000000003e-002	1.066075e+001	1.597500e+001	6.220064e-001	4.656921e-002
2.655000000000003e-002	1.054116e+001	1.552500e+001	6.089115e-001	3.292089e-002
2.665000000000003e-002	1.042472e+001	1.507500e+001	5.872622e-001	1.963204e-002
2.675000000000003e-002	1.031523e+001	1.462500e+001	5.467815e-001	7.125409e-003
2.679283610828617e-002	1.027538e+001	1.443224e+001	5.102930e-001	2.571549e-003
2.681471444447350e-002	1.026138e+001	1.433379e+001	4.744387e-001	9.697251e-004
2.683173548939545e-002	1.025570e+001	1.425719e+001	4.324102e-001	3.191358e-004
2.684711295662681e-002	1.025363e+001	1.418799e+001	3.861256e-001	8.266245e-005
2.685777978390061e-002	1.025315e+001	1.413999e+001	3.514156e-001	2.835917e-005
2.687123824006154e-002	1.025298e+001	1.407943e+001	3.064594e-001	8.727553e-006
2.688658650819365e-002	1.025292e+001	1.401036e+001	2.548170e-001	2.044472e-006
2.690875444989112e-002	1.025290e+001	1.391061e+001	1.800480e-001	8.517631e-009
2.694064160438259e-002	1.025290e+001	1.376711e+001	7.243919e-002	-4.162261e-007
2.699206800826826e-002	1.025290e+001	1.353569e+001	-1.011238e-001	-4.367262e-007
2.709206800826826e-002	1.025290e+001	1.308569e+001	-4.386253e-001	-3.902589e-007
2.719206800826825e-002	1.025290e+001	1.263569e+001	-7.761259e-001	-3.543030e-007
2.729206800826825e-002	1.025290e+001	1.218569e+001	-1.113626e+000	-3.273201e-007
2.739206800826825e-002	1.025290e+001	1.173569e+001	-1.451127e+000	-3.060575e-007
2.759206800826825e-002	1.025290e+001	1.083569e+001	-2.126128e+000	-2.742159e-007
2.789206800826825e-002	1.025290e+001	9.485694e+000	-3.138629e+000	-2.416866e-007
2.810635372255396e-002	1.025290e+001	8.521408e+000	-3.861843e+000	-2.262153e-007
2.832063943683968e-002	1.025290e+001	7.557123e+000	-4.585058e+000	-2.124363e-007
2.853492515112539e-002	1.025290e+001	6.592837e+000	-5.308272e+000	-2.003497e-007
2.874921086541110e-002	1.025290e+001	5.628551e+000	-6.031487e+000	-1.899553e-007
2.896349657969682e-002	1.025290e+001	4.664265e+000	-6.754701e+000	-1.812533e-007
2.917778229398253e-002	1.025290e+001	3.699980e+000	-7.477915e+000	-1.742437e-007
2.939206800826824e-002	1.025290e+001	2.735694e+000	-8.201130e+000	-1.689263e-007
2.994759195039089e-002	1.025290e+001	2.358362e-001	-1.007602e+001	-1.554539e-007
3.000000000000000e-002	1.025290e+001	1.953993e-013	-1.025291e+001	-1.549370e-007
